T4D8C 7939:237.868   SEGGER J-Link V7.66d Log File
T4D8C 7939:237.939   DLL Compiled: Jun 21 2022 17:00:22
T4D8C 7939:237.950   Logging started @ 2023-09-30 09:05
T4D8C 7939:237.960 - 3049.454ms
T4D8C 7939:237.974 JLINK_SetWarnOutHandler(...)
T4D8C 7939:237.984 - 0.014ms
T4D8C 7939:237.995 JLINK_OpenEx(...)
T4D8C 7939:240.702   Firmware: J-Link V11 compiled Jun 21 2022 09:52:55
T4D8C 7939:241.708   Firmware: J-Link V11 compiled Jun 21 2022 09:52:55
T4D8C 7939:261.094   Hardware: V11.00
T4D8C 7939:261.143   S/N: 601012352
T4D8C 7939:261.162   OEM: SEGGER
T4D8C 7939:261.178   Feature(s): GDB, JFlash, FlashDL, FLashBP, RDI
T4D8C 7939:263.392   USB speed mode: High speed (480 MBit/s)
T4D8C 7939:263.871   TELNET listener socket opened on port 19021
T4D8C 7939:267.877   WEBSRV WEBSRV_Init(): Starting webserver thread(s)
T4D8C 7939:268.149   WEBSRV Webserver running on local port 19080
T4D8C 7939:273.442 - 35.491ms returns "O.K."
T4D8C 7939:273.522 JLINK_GetEmuCaps()
T4D8C 7939:273.534 - 0.017ms returns 0xB9FF7BBF
T4D8C 7939:273.547 JLINK_TIF_GetAvailable(...)
T4D8C 7939:273.915 - 0.376ms
T4D8C 7939:273.931 JLINK_SetErrorOutHandler(...)
T4D8C 7939:273.940 - 0.014ms
T4D8C 7939:273.973 JLINK_ExecCommand("ProjectFile = "E:\projects\ARMFLY_STM32_V6\Hard_Fault_Handler\MDK-ARM\JLinkSettings.ini"", ...). 
T4D8C 7939:335.540 - 61.583ms returns 0x00
T4D8C 7939:335.616 JLINK_ExecCommand("Device = STM32F429BITx", ...). 
T4D8C 7939:336.163   Device "STM32F429BI" selected.
T4D8C 7939:336.678 - 1.062ms returns 0x00
T4D8C 7939:336.702 JLINK_ExecCommand("DisableConnectionTimeout", ...). 
T4D8C 7939:336.716 - 0.020ms returns 0x01
T4D8C 7939:336.745 JLINK_GetHardwareVersion()
T4D8C 7939:336.756 - 0.016ms returns 110000
T4D8C 7939:336.768 JLINK_GetDLLVersion()
T4D8C 7939:336.779 - 0.015ms returns 76604
T4D8C 7939:336.791 JLINK_GetOEMString(...)
T4D8C 7939:336.803 JLINK_GetFirmwareString(...)
T4D8C 7939:336.814 - 0.015ms
T4D8C 7939:336.872 JLINK_GetDLLVersion()
T4D8C 7939:336.884 - 0.016ms returns 76604
T4D8C 7939:336.896 JLINK_GetCompileDateTime()
T4D8C 7939:336.907 - 0.016ms
T4D8C 7939:336.929 JLINK_GetFirmwareString(...)
T4D8C 7939:336.939 - 0.014ms
T4D8C 7939:336.960 JLINK_GetHardwareVersion()
T4D8C 7939:336.970 - 0.015ms returns 110000
T4D8C 7939:336.990 JLINK_GetSN()
T4D8C 7939:337.000 - 0.015ms returns 601012352
T4D8C 7939:337.578 JLINK_GetOEMString(...)
T4D8C 7939:337.621 JLINK_TIF_Select(JLINKARM_TIF_SWD)
T4D8C 7939:339.449 - 1.847ms returns 0x00
T4D8C 7939:339.480 JLINK_HasError()
T4D8C 7939:339.492 JLINK_SetSpeed(5000)
T4D8C 7939:339.829 - 0.353ms
T4D8C 7939:339.857 JLINK_GetId()
T4D8C 7939:340.412   InitTarget() start
T4D8C 7939:340.434    J-Link Script File: Executing InitTarget()
T4D8C 7939:352.206   InitTarget() end
T4D8C 7939:353.013   Found SW-DP with ID 0x2BA01477
T4D8C 7939:355.238   DPIDR: 0x2BA01477
T4D8C 7939:355.279   CoreSight SoC-400 or earlier
T4D8C 7939:355.306   Scanning AP map to find all available APs
T4D8C 7939:356.093   AP[1]: Stopped AP scan as end of AP map has been reached
T4D8C 7939:356.124   AP[0]: AHB-AP (IDR: 0x24770011)
T4D8C 7939:356.150   Iterating through AP map to find AHB-AP to use
T4D8C 7939:356.925   AP[0]: Core found
T4D8C 7939:356.952   AP[0]: AHB-AP ROM base: 0xE00FF000
T4D8C 7939:357.424   CPUID register: 0x410FC241. Implementer code: 0x41 (ARM)
T4D8C 7939:357.451   Found Cortex-M4 r0p1, Little endian.
T4D8C 7939:458.855   -- Max. mem block: 0x00004E78
T4D8C 7939:459.328   CPU_ReadMem(4 bytes @ 0xE000EDF0)
T4D8C 7939:459.772   CPU_ReadMem(4 bytes @ 0xE0002000)
T4D8C 7939:460.294   FPUnit: 6 code (BP) slots and 2 literal slots
T4D8C 7939:460.327   CPU_ReadMem(4 bytes @ 0xE000EDFC)
T4D8C 7939:460.814   CPU_WriteMem(4 bytes @ 0xE000EDFC)
T4D8C 7939:461.242   CPU_ReadMem(4 bytes @ 0xE0001000)
T4D8C 7939:461.701   CPU_WriteMem(4 bytes @ 0xE0001000)
T4D8C 7939:462.118   CPU_ReadMem(4 bytes @ 0xE000ED88)
T4D8C 7939:462.564   CPU_WriteMem(4 bytes @ 0xE000ED88)
T4D8C 7939:462.966   CPU_ReadMem(4 bytes @ 0xE000ED88)
T4D8C 7939:463.342   CPU_WriteMem(4 bytes @ 0xE000ED88)
T4D8C 7939:463.854   CoreSight components:
T4D8C 7939:463.886   ROMTbl[0] @ E00FF000
T4D8C 7939:463.904   CPU_ReadMem(64 bytes @ 0xE00FF000)
T4D8C 7939:464.506   CPU_ReadMem(32 bytes @ 0xE000EFE0)
T4D8C 7939:465.160   [0][0]: E000E000 CID B105E00D PID 000BB00C SCS-M7
T4D8C 7939:465.181   CPU_ReadMem(32 bytes @ 0xE0001FE0)
T4D8C 7939:465.817   [0][1]: E0001000 CID B105E00D PID 003BB002 DWT
T4D8C 7939:465.841   CPU_ReadMem(32 bytes @ 0xE0002FE0)
T4D8C 7939:466.472   [0][2]: E0002000 CID B105E00D PID 002BB003 FPB
T4D8C 7939:466.494   CPU_ReadMem(32 bytes @ 0xE0000FE0)
T4D8C 7939:467.059   [0][3]: E0000000 CID B105E00D PID 003BB001 ITM
T4D8C 7939:467.079   CPU_ReadMem(32 bytes @ 0xE0040FE0)
T4D8C 7939:467.679   [0][4]: E0040000 CID B105900D PID 000BB9A1 TPIU
T4D8C 7939:467.700   CPU_ReadMem(32 bytes @ 0xE0041FE0)
T4D8C 7939:468.224   [0][5]: E0041000 CID B105900D PID 000BB925 ETM
T4D8C 7939:468.666 - 128.817ms returns 0x2BA01477
T4D8C 7939:468.687 JLINK_GetDLLVersion()
T4D8C 7939:468.699 - 0.017ms returns 76604
T4D8C 7939:468.717 JLINK_CORE_GetFound()
T4D8C 7939:468.728 - 0.016ms returns 0xE0000FF
T4D8C 7939:468.742 JLINK_GetDebugInfo(0x100 = JLINKARM_ROM_TABLE_ADDR_INDEX)
T4D8C 7939:468.754   Value=0xE00FF000
T4D8C 7939:468.769 - 0.032ms returns 0
T4D8C 7939:468.961 JLINK_GetDebugInfo(0x100 = JLINKARM_ROM_TABLE_ADDR_INDEX)
T4D8C 7939:468.976   Value=0xE00FF000
T4D8C 7939:468.991 - 0.035ms returns 0
T4D8C 7939:469.003 JLINK_GetDebugInfo(0x101 = JLINKARM_DEBUG_INFO_ETM_ADDR_INDEX)
T4D8C 7939:469.013   Value=0xE0041000
T4D8C 7939:469.028 - 0.030ms returns 0
T4D8C 7939:469.041 JLINK_ReadMemEx(0xE0041FD0, 0x20 Bytes, Flags = 0x02000004)
T4D8C 7939:469.059   CPU_ReadMem(32 bytes @ 0xE0041FD0)
T4D8C 7939:469.562   Data:  04 00 00 00 00 00 00 00 00 00 00 00 00 00 00 00 ...
T4D8C 7939:469.581 - 0.544ms returns 32 (0x20)
T4D8C 7939:469.593 JLINK_GetDebugInfo(0x102 = JLINKARM_DEBUG_INFO_MTB_ADDR_INDEX)
T4D8C 7939:469.604   Value=0x00000000
T4D8C 7939:469.619 - 0.031ms returns 0
T4D8C 7939:469.630 JLINK_GetDebugInfo(0x103 = JLINKARM_DEBUG_INFO_TPIU_ADDR_INDEX)
T4D8C 7939:469.641   Value=0xE0040000
T4D8C 7939:469.656 - 0.031ms returns 0
T4D8C 7939:469.667 JLINK_GetDebugInfo(0x104 = JLINKARM_DEBUG_INFO_ITM_ADDR_INDEX)
T4D8C 7939:469.678   Value=0xE0000000
T4D8C 7939:469.693 - 0.031ms returns 0
T4D8C 7939:469.705 JLINK_GetDebugInfo(0x105 = JLINKARM_DEBUG_INFO_DWT_ADDR_INDEX)
T4D8C 7939:469.718   Value=0xE0001000
T4D8C 7939:469.733 - 0.034ms returns 0
T4D8C 7939:469.746 JLINK_GetDebugInfo(0x106 = JLINKARM_DEBUG_INFO_FPB_ADDR_INDEX)
T4D8C 7939:469.757   Value=0xE0002000
T4D8C 7939:469.772 - 0.031ms returns 0
T4D8C 7939:469.783 JLINK_GetDebugInfo(0x107 = JLINKARM_DEBUG_INFO_NVIC_ADDR_INDEX)
T4D8C 7939:469.794   Value=0xE000E000
T4D8C 7939:469.809 - 0.030ms returns 0
T4D8C 7939:469.820 JLINK_GetDebugInfo(0x10C = JLINKARM_DEBUG_INFO_DBG_ADDR_INDEX)
T4D8C 7939:469.831   Value=0xE000EDF0
T4D8C 7939:469.846 - 0.030ms returns 0
T4D8C 7939:469.857 JLINK_GetDebugInfo(0x01 = Unknown)
T4D8C 7939:469.867   Value=0x00000001
T4D8C 7939:469.882 - 0.030ms returns 0
T4D8C 7939:469.894 JLINK_ReadMemU32(0xE000ED00, 0x1 Items)
T4D8C 7939:469.907   CPU_ReadMem(4 bytes @ 0xE000ED00)
T4D8C 7939:470.312   Data:  41 C2 0F 41
T4D8C 7939:470.344   Debug reg: CPUID
T4D8C 7939:470.359 - 0.469ms returns 1 (0x1)
T4D8C 7939:470.372 JLINK_GetDebugInfo(0x10F = JLINKARM_DEBUG_INFO_HAS_CORTEX_M_SECURITY_EXT_INDEX)
T4D8C 7939:470.384   Value=0x00000000
T4D8C 7939:470.399 - 0.031ms returns 0
T4D8C 7939:470.410 JLINK_HasError()
T4D8C 7939:470.424 JLINK_SetResetType(JLINKARM_CM3_RESET_TYPE_NORMAL)
T4D8C 7939:470.435 - 0.016ms returns JLINKARM_CM3_RESET_TYPE_NORMAL
T4D8C 7939:470.447 JLINK_Reset()
T4D8C 7939:470.461   CPU is running
T4D8C 7939:470.479   CPU_WriteMem(4 bytes @ 0xE000EDF0)
T4D8C 7939:470.901   CPU is running
T4D8C 7939:470.931   CPU_WriteMem(4 bytes @ 0xE000EDFC)
T4D8C 7939:471.371   Reset: Halt core after reset via DEMCR.VC_CORERESET.
T4D8C 7939:472.050   Reset: Reset device via AIRCR.SYSRESETREQ.
T4D8C 7939:472.087   CPU is running
T4D8C 7939:472.105   CPU_WriteMem(4 bytes @ 0xE000ED0C)
T4D8C 7939:526.536   CPU_ReadMem(4 bytes @ 0xE000EDF0)
T4D8C 7939:527.004   CPU_ReadMem(4 bytes @ 0xE000EDF0)
T4D8C 7939:527.444   CPU is running
T4D8C 7939:527.472   CPU_WriteMem(4 bytes @ 0xE000EDF0)
T4D8C 7939:527.893   CPU is running
T4D8C 7939:527.917   CPU_WriteMem(4 bytes @ 0xE000EDFC)
T4D8C 7939:533.374   CPU_ReadMem(4 bytes @ 0xE000EDF0)
T4D8C 7939:535.909   CPU_WriteMem(4 bytes @ 0xE0002000)
T4D8C 7939:536.310   CPU_ReadMem(4 bytes @ 0xE000EDFC)
T4D8C 7939:536.738   CPU_ReadMem(4 bytes @ 0xE0001000)
T4D8C 7939:537.141 - 66.700ms
T4D8C 7939:537.324 JLINK_HasError()
T4D8C 7939:537.343 JLINK_ReadReg(R15 (PC))
T4D8C 7939:537.358 - 0.021ms returns 0x0800024C
T4D8C 7939:537.371 JLINK_ReadReg(XPSR)
T4D8C 7939:537.382 - 0.016ms returns 0x01000000
T4D8C 7939:537.396 JLINK_Halt()
T4D8C 7939:537.406 - 0.016ms returns 0x00
T4D8C 7939:537.418 JLINK_ReadMemU32(0xE000EDF0, 0x1 Items)
T4D8C 7939:537.433   CPU_ReadMem(4 bytes @ 0xE000EDF0)
T4D8C 7939:537.869   Data:  03 00 03 00
T4D8C 7939:537.898   Debug reg: DHCSR
T4D8C 7939:537.914 - 0.501ms returns 1 (0x1)
T4D8C 7939:537.930 JLINK_WriteU32_64(0xE000EDF0, 0xA05F0003)
T4D8C 7939:537.942   Debug reg: DHCSR
T4D8C 7939:538.195   CPU_WriteMem(4 bytes @ 0xE000EDF0)
T4D8C 7939:538.600 - 0.678ms returns 0 (0x00000000)
T4D8C 7939:538.616 JLINK_WriteU32_64(0xE000EDFC, 0x01000000)
T4D8C 7939:538.627   Debug reg: DEMCR
T4D8C 7939:538.657   CPU_WriteMem(4 bytes @ 0xE000EDFC)
T4D8C 7939:539.056 - 0.447ms returns 0 (0x00000000)
T4D8C 7939:539.154 JLINK_GetHWStatus(...)
T4D8C 7939:539.517 - 0.371ms returns 0
T4D8C 7939:539.567 JLINK_GetNumBPUnits(Type = 0xFFFFFF00)
T4D8C 7939:539.579 - 0.017ms returns 0x06
T4D8C 7939:539.591 JLINK_GetNumBPUnits(Type = 0xF0)
T4D8C 7939:539.601 - 0.016ms returns 0x2000
T4D8C 7939:539.614 JLINK_GetNumWPUnits()
T4D8C 7939:539.624 - 0.016ms returns 4
T4D8C 7939:539.678 JLINK_GetSpeed()
T4D8C 7939:539.690 - 0.018ms returns 5000
T4D8C 7939:539.732 JLINK_ReadMemU32(0xE000E004, 0x1 Items)
T4D8C 7939:539.748   CPU_ReadMem(4 bytes @ 0xE000E004)
T4D8C 7939:540.140   Data:  02 00 00 00
T4D8C 7939:540.158 - 0.431ms returns 1 (0x1)
T4D8C 7939:540.171 JLINK_ReadMemU32(0xE000E004, 0x1 Items)
T4D8C 7939:540.184   CPU_ReadMem(4 bytes @ 0xE000E004)
T4D8C 7939:540.557   Data:  02 00 00 00
T4D8C 7939:540.575 - 0.409ms returns 1 (0x1)
T4D8C 7939:540.588 JLINK_WriteMemEx(0xE0001000, 0x0000001C Bytes, Flags = 0x02000004)
T4D8C 7939:540.600   Data:  01 00 00 00 00 00 00 00 00 00 00 00 00 00 00 00 ...
T4D8C 7939:540.619   CPU_WriteMem(28 bytes @ 0xE0001000)
T4D8C 7939:541.082 - 0.507ms returns 0x1C
T4D8C 7939:541.106 JLINK_HasError()
T4D8C 7939:541.119 JLINK_ReadReg(R15 (PC))
T4D8C 7939:541.132 - 0.018ms returns 0x0800024C
T4D8C 7939:541.143 JLINK_ReadReg(XPSR)
T4D8C 7939:541.154 - 0.016ms returns 0x01000000
T4D8C 7939:541.197 JLINK_WriteU32_64(0xE0041FB0, 0xC5ACCE55)
T4D8C 7939:541.209   Debug reg: ETMLAR
T4D8C 7939:541.228   CPU_WriteMem(4 bytes @ 0xE0041FB0)
T4D8C 7939:541.651 - 0.461ms returns 0 (0x00000000)
T4D8C 7939:541.665 JLINK_ReadMemU32(0xE0041000, 0x1 Items)
T4D8C 7939:541.679   CPU_ReadMem(4 bytes @ 0xE0041000)
T4D8C 7939:542.096   Data:  01 00 00 00
T4D8C 7939:542.115   Debug reg: ETM_CR
T4D8C 7939:542.130 - 0.470ms returns 1 (0x1)
T4D8C 7939:542.143 JLINK_WriteU32_64(0xE0041000, 0x00000000)
T4D8C 7939:542.154   Debug reg: ETM_CR
T4D8C 7939:542.172   CPU_WriteMem(4 bytes @ 0xE0041000)
T4D8C 7939:542.612 - 0.476ms returns 0 (0x00000000)
T4D8C 7939:544.518 JLINK_SWO_Control(JLINKARM_SWO_CMD_GET_SPEED_INFO, ...)
T4D8C 7939:544.887 - 0.377ms returns 0x00
T4D8C 7939:544.902 JLINK_SWO_Control(JLINKARM_SWO_CMD_STOP, ...)
T4D8C 7939:544.932 - 0.035ms returns 0x00
T4D8C 7939:544.944 JLINK_SWO_Control(JLINKARM_SWO_CMD_START, ...)
T4D8C 7939:545.289    -- UART
T4D8C 7939:545.312    -- 30000000bps
T4D8C 7939:546.382 - 1.455ms returns 0x00
T4D8C 7939:546.408 JLINK_WriteU32_64(0xE0040004, 0x00000001)
T4D8C 7939:546.424   Debug reg: TPIU_CSPSR
T4D8C 7939:546.449   CPU_WriteMem(4 bytes @ 0xE0040004)
T4D8C 7939:546.893 - 0.495ms returns 0 (0x00000000)
T4D8C 7939:546.911 JLINK_WriteU32_64(0xE0040010, 0x00000005)
T4D8C 7939:546.922   Debug reg: TPIU_ACPR
T4D8C 7939:546.941 - 0.035ms returns 0 (0x00000000)
T4D8C 7939:546.953 JLINK_WriteU32_64(0xE00400F0, 0x00000002)
T4D8C 7939:546.963   Debug reg: TPIU_SPPR
T4D8C 7939:546.981 - 0.033ms returns 0 (0x00000000)
T4D8C 7939:546.992 JLINK_WriteU32_64(0xE0040304, 0x00000000)
T4D8C 7939:547.003   Debug reg: TPIU_FFCR
T4D8C 7939:547.020 - 0.032ms returns 0 (0x00000000)
T4D8C 7939:547.032 JLINK_WriteU32_64(0xE0000FB0, 0xC5ACCE55)
T4D8C 7939:547.043   Debug reg: ITM_LOCKACCESS
T4D8C 7939:547.060   CPU_WriteMem(4 bytes @ 0xE0000FB0)
T4D8C 7939:547.461 - 0.436ms returns 0 (0x00000000)
T4D8C 7939:547.475 JLINK_WriteU32_64(0xE0000E80, 0x0001000D)
T4D8C 7939:547.487   Debug reg: ITM_TCR
T4D8C 7939:547.504 - 0.033ms returns 0 (0x00000000)
T4D8C 7939:547.516 JLINK_WriteU32_64(0xE0000E00, 0xFFFFFFFF)
T4D8C 7939:547.528   Debug reg: ITM_TER
T4D8C 7939:547.545 - 0.034ms returns 0 (0x00000000)
T4D8C 7939:547.556 JLINK_WriteU32_64(0xE0000E40, 0x00000008)
T4D8C 7939:547.567   Debug reg: ITM_TPR
T4D8C 7939:547.584 - 0.033ms returns 0 (0x00000000)
T4D8C 7939:547.596 JLINK_WriteU32_64(0xE0001000, 0x00010A1F)
T4D8C 7939:547.607   Debug reg: DWT_CTRL
T4D8C 7939:547.623   CPU_WriteMem(4 bytes @ 0xE0001000)
T4D8C 7939:548.011 - 0.423ms returns 0 (0x00000000)
T4D8C 7939:560.074 JLINK_ReadMemEx(0xE0001004, 0x4 Bytes, Flags = 0x02000000)
T4D8C 7939:560.131   Data:  00 00 00 00
T4D8C 7939:560.148   Debug reg: DWT_CYCCNT
T4D8C 7939:560.164 - 0.095ms returns 4 (0x4)
T4D8C 7939:649.898 JLINK_HasError()
T4D8C 7939:649.948 JLINK_SetResetType(JLINKARM_CM3_RESET_TYPE_NORMAL)
T4D8C 7939:649.962 - 0.019ms returns JLINKARM_CM3_RESET_TYPE_NORMAL
T4D8C 7939:649.976 JLINK_Reset()
T4D8C 7939:649.995   CPU_WriteMem(4 bytes @ 0xE0000E00)
T4D8C 7939:650.014   CPU_WriteMem(4 bytes @ 0xE0000E40)
T4D8C 7939:650.032   CPU_WriteMem(4 bytes @ 0xE0000E80)
T4D8C 7939:650.050   CPU_WriteMem(4 bytes @ 0xE0040010)
T4D8C 7939:650.068   CPU_WriteMem(4 bytes @ 0xE00400F0)
T4D8C 7939:650.086   CPU_WriteMem(4 bytes @ 0xE0040304)
T4D8C 7939:651.058   CPU_WriteMem(4 bytes @ 0xE000EDF0)
T4D8C 7939:651.517   CPU_WriteMem(4 bytes @ 0xE000EDFC)
T4D8C 7939:651.968   Reset: Halt core after reset via DEMCR.VC_CORERESET.
T4D8C 7939:652.704   Reset: Reset device via AIRCR.SYSRESETREQ.
T4D8C 7939:652.738   CPU_WriteMem(4 bytes @ 0xE000ED0C)
T4D8C 7939:706.458   CPU_ReadMem(4 bytes @ 0xE000EDF0)
T4D8C 7939:707.095   CPU_ReadMem(4 bytes @ 0xE000EDF0)
T4D8C 7939:707.776   CPU_WriteMem(4 bytes @ 0xE000EDF0)
T4D8C 7939:708.214   CPU_WriteMem(4 bytes @ 0xE000EDFC)
T4D8C 7939:714.118   CPU_ReadMem(4 bytes @ 0xE000EDF0)
T4D8C 7939:716.630   CPU_WriteMem(4 bytes @ 0xE0002000)
T4D8C 7939:717.222   CPU_ReadMem(4 bytes @ 0xE000EDFC)
T4D8C 7939:717.692   CPU_ReadMem(4 bytes @ 0xE0001000)
T4D8C 7939:718.102 - 68.134ms
T4D8C 7939:718.123 JLINK_WriteU32_64(0xE000EDFC, 0x01000000)
T4D8C 7939:718.136   Debug reg: DEMCR
T4D8C 7939:718.160   CPU_WriteMem(4 bytes @ 0xE000EDFC)
T4D8C 7939:718.602 - 0.490ms returns 0 (0x00000000)
T4D8C 7939:718.654 JLINK_HasError()
T4D8C 7939:718.669 JLINK_ReadReg(R15 (PC))
T4D8C 7939:718.683 - 0.020ms returns 0x0800024C
T4D8C 7939:718.697 JLINK_ReadReg(XPSR)
T4D8C 7939:718.709 - 0.018ms returns 0x01000000
T4D8C 7939:723.544 JLINK_ReadMemEx(0x080001AC, 0x3C Bytes, Flags = 0x02000000)
T4D8C 7939:723.583   CPU_ReadMem(128 bytes @ 0x08000180)
T4D8C 7939:724.342    -- Updating C cache (128 bytes @ 0x08000180)
T4D8C 7939:724.394    -- Read from C cache (60 bytes @ 0x080001AC)
T4D8C 7939:724.413   Data:  00 F0 02 F8 00 F0 3C F8 0A A0 90 E8 00 0C 82 44 ...
T4D8C 7939:724.430 - 0.892ms returns 60 (0x3C)
T4D8C 7939:724.451 JLINK_ReadMemEx(0x080001E8, 0x3C Bytes, Flags = 0x02000000)
T4D8C 7939:724.466   CPU_ReadMem(64 bytes @ 0x08000200)
T4D8C 7939:725.110    -- Updating C cache (64 bytes @ 0x08000200)
T4D8C 7939:725.185    -- Read from C cache (60 bytes @ 0x080001E8)
T4D8C 7939:725.204   Data:  10 3A 24 BF 78 C8 78 C1 FA D8 52 07 24 BF 30 C8 ...
T4D8C 7939:725.222 - 0.777ms returns 60 (0x3C)
T4D8C 7939:725.543 JLINK_ReadMemEx(0x08000224, 0x3C Bytes, Flags = 0x02000000)
T4D8C 7939:725.560   CPU_ReadMem(64 bytes @ 0x08000240)
T4D8C 7939:726.177    -- Updating C cache (64 bytes @ 0x08000240)
T4D8C 7939:726.198    -- Read from C cache (60 bytes @ 0x08000224)
T4D8C 7939:726.217   Data:  DF F8 1F BD 10 B5 10 BD 00 F0 CF F8 11 46 FF F7 ...
T4D8C 7939:726.234 - 0.697ms returns 60 (0x3C)
T4D8C 7939:851.765 JLINK_WriteU32_64(0xE0001008, 0x00000000)
T4D8C 7939:851.816   Debug reg: DWT_CPICNT
T4D8C 7939:851.844 - 0.085ms returns 0 (0x00000000)
T4D8C 7939:851.859 JLINK_WriteU32_64(0xE000100C, 0x00000000)
T4D8C 7939:851.871   Debug reg: DWT_EXCCNT
T4D8C 7939:851.889 - 0.036ms returns 0 (0x00000000)
T4D8C 7939:851.902 JLINK_WriteU32_64(0xE0001010, 0x00000000)
T4D8C 7939:851.914   Debug reg: DWT_SLEEPCNT
T4D8C 7939:851.932 - 0.035ms returns 0 (0x00000000)
T4D8C 7939:851.944 JLINK_WriteU32_64(0xE0001014, 0x00000000)
T4D8C 7939:851.956   Debug reg: DWT_LSUCNT
T4D8C 7939:851.974 - 0.035ms returns 0 (0x00000000)
T4D8C 7939:851.987 JLINK_WriteU32_64(0xE0001018, 0x00000000)
T4D8C 7939:851.998   Debug reg: DWT_FOLDCNT
T4D8C 7939:852.016 - 0.035ms returns 0 (0x00000000)
T5D00 7941:438.563 JLINK_ReadMemEx(0x0800024C, 0x2 Bytes, Flags = 0x02000000)
T5D00 7941:438.639    -- Read from C cache (2 bytes @ 0x0800024C)
T5D00 7941:438.664   Data:  09 48
T5D00 7941:438.689 - 0.133ms returns 2 (0x2)
T5D00 7941:438.709 JLINK_HasError()
T5D00 7941:438.747 JLINK_SetBPEx(Addr = 0x0800231C, Type = 0xFFFFFFF2)
T5D00 7941:438.768 - 0.042ms returns 0x00000001
T5D00 7941:438.786 JLINK_HasError()
T5D00 7941:438.803 JLINK_HasError()
T5D00 7941:438.821 JLINK_ReadMemU32(0xE0001004, 0x1 Items)
T5D00 7941:438.844   Data:  00 00 00 00
T5D00 7941:438.868   Debug reg: DWT_CYCCNT
T5D00 7941:438.891 - 0.077ms returns 1 (0x1)
T5D00 7941:438.908 JLINK_WriteU32_64(0xE0001004, 0x000003FF)
T5D00 7941:438.925   Debug reg: DWT_CYCCNT
T5D00 7941:438.954 - 0.053ms returns 0 (0x00000000)
T5D00 7941:438.973 JLINK_WriteU32_64(0xE0001000, 0x00410A1F)
T5D00 7941:438.990   Debug reg: DWT_CTRL
T5D00 7941:439.016   CPU_WriteMem(4 bytes @ 0xE0001000)
T5D00 7941:439.476 - 0.541ms returns 0 (0x00000000)
T5D00 7941:439.530 JLINK_WriteU32_64(0xE0000E80, 0x0001000F)
T5D00 7941:439.548   Debug reg: ITM_TCR
T5D00 7941:439.579 - 0.057ms returns 0 (0x00000000)
T5D00 7941:439.608 JLINK_SWO_Control(JLINKARM_SWO_CMD_GET_NUM_BYTES, ...)
T5D00 7941:439.626 - 0.025ms returns 0x00
T5D00 7941:439.648 JLINK_Go()
T5D00 7941:440.069   CPU_WriteMem(4 bytes @ 0xE0002000)
T5D00 7941:440.516   CPU_ReadMem(4 bytes @ 0xE0001000)
T5D00 7941:440.945   CPU_WriteMem(4 bytes @ 0xE0000E80)
T5D00 7941:440.988   CPU_WriteMem(4 bytes @ 0xE0001008)
T5D00 7941:441.012   CPU_WriteMem(4 bytes @ 0xE000100C)
T5D00 7941:441.036   CPU_WriteMem(4 bytes @ 0xE0001010)
T5D00 7941:441.060   CPU_WriteMem(4 bytes @ 0xE0001014)
T5D00 7941:441.084   CPU_WriteMem(4 bytes @ 0xE0001018)
T5D00 7941:441.109   CPU_WriteMem(4 bytes @ 0xE0002008)
T5D00 7941:441.134   CPU_WriteMem(4 bytes @ 0xE000200C)
T5D00 7941:441.158   CPU_WriteMem(4 bytes @ 0xE0002010)
T5D00 7941:441.183   CPU_WriteMem(4 bytes @ 0xE0002014)
T5D00 7941:441.207   CPU_WriteMem(4 bytes @ 0xE0002018)
T5D00 7941:441.230   CPU_WriteMem(4 bytes @ 0xE000201C)
T5D00 7941:442.710   CPU_WriteMem(4 bytes @ 0xE0001004)
T5D00 7941:443.614 - 3.988ms
T5D00 7941:443.653 JLINK_WriteU32_64(0xE0001000, 0x00010A1F)
T5D00 7941:443.670   Debug reg: DWT_CTRL
T5D00 7941:443.700   CPU is running
T5D00 7941:443.726   CPU_WriteMem(4 bytes @ 0xE0001000)
T5D00 7941:444.127 - 0.488ms returns 0 (0x00000000)
T5D00 7941:544.406 JLINK_SWO_Read(..., Offset = 0x00, NumBytes = 0x400000)
T5D00 7941:544.474   Data: 
T5D00 7941:544.497 - 0.099ms returns NumBytesRead = 0x00
T5D00 7941:544.515 JLINK_SWO_Control(JLINKARM_SWO_CMD_FLUSH, ...)
T5D00 7941:544.541 - 0.034ms returns 0x00
T5D00 7941:544.560 JLINK_HasError()
T5D00 7941:544.581 JLINK_IsHalted()
T5D00 7941:546.672 - 2.117ms returns TRUE
T5D00 7941:546.713 JLINK_HasError()
T5D00 7941:546.735 JLINK_Halt()
T5D00 7941:546.754 - 0.026ms returns 0x00
T5D00 7941:546.772 JLINK_IsHalted()
T5D00 7941:546.790 - 0.025ms returns TRUE
T5D00 7941:546.808 JLINK_IsHalted()
T5D00 7941:546.823 - 0.022ms returns TRUE
T5D00 7941:546.839 JLINK_IsHalted()
T5D00 7941:546.855 - 0.023ms returns TRUE
T5D00 7941:546.873 JLINK_HasError()
T5D00 7941:546.890 JLINK_ReadReg(R15 (PC))
T5D00 7941:546.909 - 0.026ms returns 0x0800231C
T5D00 7941:546.926 JLINK_ReadReg(XPSR)
T5D00 7941:546.942 - 0.023ms returns 0x21000000
T5D00 7941:546.960 JLINK_SWO_Read(..., Offset = 0x00, NumBytes = 0x400000)
T5D00 7941:546.977   Data: 
T5D00 7941:546.999 - 0.046ms returns NumBytesRead = 0x00
T5D00 7941:547.016 JLINK_SWO_Control(JLINKARM_SWO_CMD_FLUSH, ...)
T5D00 7941:547.032 - 0.023ms returns 0x00
T5D00 7941:547.053 JLINK_HasError()
T5D00 7941:547.073 JLINK_ClrBPEx(BPHandle = 0x00000001)
T5D00 7941:547.090 - 0.024ms returns 0x00
T5D00 7941:547.107 JLINK_HasError()
T5D00 7941:547.126 JLINK_HasError()
T5D00 7941:547.142 JLINK_ReadMemU32(0xE000ED30, 0x1 Items)
T5D00 7941:547.165   CPU_ReadMem(4 bytes @ 0xE000ED30)
T5D00 7941:547.564   Data:  02 00 00 00
T5D00 7941:547.596 - 0.461ms returns 1 (0x1)
T5D00 7941:547.616 JLINK_ReadMemU32(0xE0001028, 0x1 Items)
T5D00 7941:547.635   CPU_ReadMem(4 bytes @ 0xE0001028)
T5D00 7941:548.165   Data:  00 00 00 00
T5D00 7941:548.209   Debug reg: DWT_FUNC[0]
T5D00 7941:548.231 - 0.622ms returns 1 (0x1)
T5D00 7941:548.250 JLINK_ReadMemU32(0xE0001038, 0x1 Items)
T5D00 7941:548.267   CPU_ReadMem(4 bytes @ 0xE0001038)
T5D00 7941:548.722   Data:  00 02 00 00
T5D00 7941:548.752   Debug reg: DWT_FUNC[1]
T5D00 7941:548.774 - 0.532ms returns 1 (0x1)
T5D00 7941:548.793 JLINK_ReadMemU32(0xE0001048, 0x1 Items)
T5D00 7941:548.812   CPU_ReadMem(4 bytes @ 0xE0001048)
T5D00 7941:549.221   Data:  00 00 00 00
T5D00 7941:549.246   Debug reg: DWT_FUNC[2]
T5D00 7941:549.268 - 0.482ms returns 1 (0x1)
T5D00 7941:549.286 JLINK_ReadMemU32(0xE0001058, 0x1 Items)
T5D00 7941:549.303   CPU_ReadMem(4 bytes @ 0xE0001058)
T5D00 7941:549.714   Data:  00 00 00 00
T5D00 7941:549.739   Debug reg: DWT_FUNC[3]
T5D00 7941:549.762 - 0.483ms returns 1 (0x1)
T5D00 7941:550.165 JLINK_HasError()
T5D00 7941:550.184 JLINK_ReadReg(R0)
T5D00 7941:550.201 - 0.024ms returns 0x20000198
T5D00 7941:550.217 JLINK_ReadReg(R1)
T5D00 7941:550.233 - 0.022ms returns 0x20000398
T5D00 7941:550.249 JLINK_ReadReg(R2)
T5D00 7941:550.264 - 0.023ms returns 0x20000398
T5D00 7941:550.281 JLINK_ReadReg(R3)
T5D00 7941:550.296 - 0.022ms returns 0x20000398
T5D00 7941:550.313 JLINK_ReadReg(R4)
T5D00 7941:550.328 - 0.022ms returns 0x00000000
T5D00 7941:550.344 JLINK_ReadReg(R5)
T5D00 7941:550.359 - 0.022ms returns 0x20000138
T5D00 7941:550.376 JLINK_ReadReg(R6)
T5D00 7941:550.391 - 0.022ms returns 0x00000000
T5D00 7941:550.407 JLINK_ReadReg(R7)
T5D00 7941:550.422 - 0.022ms returns 0x00000000
T5D00 7941:550.439 JLINK_ReadReg(R8)
T5D00 7941:550.454 - 0.022ms returns 0x00000000
T5D00 7941:550.470 JLINK_ReadReg(R9)
T5D00 7941:550.486 - 0.022ms returns 0x00000000
T5D00 7941:550.502 JLINK_ReadReg(R10)
T5D00 7941:550.517 - 0.022ms returns 0x08002430
T5D00 7941:550.533 JLINK_ReadReg(R11)
T5D00 7941:550.549 - 0.022ms returns 0x00000000
T5D00 7941:550.565 JLINK_ReadReg(R12)
T5D00 7941:550.580 - 0.022ms returns 0x20000178
T5D00 7941:550.597 JLINK_ReadReg(R13 (SP))
T5D00 7941:550.612 - 0.023ms returns 0x20000798
T5D00 7941:550.629 JLINK_ReadReg(R14)
T5D00 7941:550.644 - 0.022ms returns 0x0800023B
T5D00 7941:550.660 JLINK_ReadReg(R15 (PC))
T5D00 7941:550.676 - 0.023ms returns 0x0800231C
T5D00 7941:550.692 JLINK_ReadReg(XPSR)
T5D00 7941:550.707 - 0.022ms returns 0x21000000
T5D00 7941:550.724 JLINK_ReadReg(MSP)
T5D00 7941:550.739 - 0.022ms returns 0x20000798
T5D00 7941:550.755 JLINK_ReadReg(PSP)
T5D00 7941:550.778 - 0.030ms returns 0x00000000
T5D00 7941:550.795 JLINK_ReadReg(CFBP)
T5D00 7941:550.811 - 0.022ms returns 0x04000000
T5D00 7941:550.827 JLINK_ReadReg(FPSCR)
T5D00 7941:553.888 - 3.073ms returns 0x03000000
T5D00 7941:553.911 JLINK_ReadReg(FPS0)
T5D00 7941:553.927 - 0.023ms returns 0x00000000
T5D00 7941:553.945 JLINK_ReadReg(FPS1)
T5D00 7941:553.961 - 0.023ms returns 0x00000000
T5D00 7941:553.979 JLINK_ReadReg(FPS2)
T5D00 7941:553.994 - 0.022ms returns 0x00000000
T5D00 7941:554.011 JLINK_ReadReg(FPS3)
T5D00 7941:554.028 - 0.024ms returns 0x00000000
T5D00 7941:554.046 JLINK_ReadReg(FPS4)
T5D00 7941:554.062 - 0.023ms returns 0x00000000
T5D00 7941:554.080 JLINK_ReadReg(FPS5)
T5D00 7941:554.095 - 0.022ms returns 0x00000000
T5D00 7941:554.113 JLINK_ReadReg(FPS6)
T5D00 7941:554.128 - 0.022ms returns 0x00000000
T5D00 7941:554.145 JLINK_ReadReg(FPS7)
T5D00 7941:554.161 - 0.023ms returns 0x00000000
T5D00 7941:554.179 JLINK_ReadReg(FPS8)
T5D00 7941:554.194 - 0.022ms returns 0x00000000
T5D00 7941:554.211 JLINK_ReadReg(FPS9)
T5D00 7941:554.227 - 0.023ms returns 0x00000000
T5D00 7941:554.246 JLINK_ReadReg(FPS10)
T5D00 7941:554.262 - 0.023ms returns 0x00000000
T5D00 7941:554.279 JLINK_ReadReg(FPS11)
T5D00 7941:554.301 - 0.029ms returns 0x00000000
T5D00 7941:554.318 JLINK_ReadReg(FPS12)
T5D00 7941:554.334 - 0.023ms returns 0x00000000
T5D00 7941:554.351 JLINK_ReadReg(FPS13)
T5D00 7941:554.367 - 0.023ms returns 0x00000000
T5D00 7941:554.384 JLINK_ReadReg(FPS14)
T5D00 7941:554.400 - 0.023ms returns 0x00000000
T5D00 7941:554.418 JLINK_ReadReg(FPS15)
T5D00 7941:554.434 - 0.023ms returns 0x00000000
T5D00 7941:554.452 JLINK_ReadReg(FPS16)
T5D00 7941:554.468 - 0.023ms returns 0x00000000
T5D00 7941:554.485 JLINK_ReadReg(FPS17)
T5D00 7941:554.501 - 0.023ms returns 0x00000000
T5D00 7941:554.518 JLINK_ReadReg(FPS18)
T5D00 7941:554.534 - 0.023ms returns 0x00000000
T5D00 7941:554.552 JLINK_ReadReg(FPS19)
T5D00 7941:554.567 - 0.023ms returns 0x00000000
T5D00 7941:554.585 JLINK_ReadReg(FPS20)
T5D00 7941:554.600 - 0.023ms returns 0x00000000
T5D00 7941:554.618 JLINK_ReadReg(FPS21)
T5D00 7941:554.633 - 0.023ms returns 0x00000000
T5D00 7941:554.651 JLINK_ReadReg(FPS22)
T5D00 7941:554.666 - 0.022ms returns 0x00000000
T5D00 7941:554.683 JLINK_ReadReg(FPS23)
T5D00 7941:554.699 - 0.022ms returns 0x00000000
T5D00 7941:554.716 JLINK_ReadReg(FPS24)
T5D00 7941:554.732 - 0.022ms returns 0x00000000
T5D00 7941:554.749 JLINK_ReadReg(FPS25)
T5D00 7941:554.765 - 0.022ms returns 0x00000000
T5D00 7941:554.782 JLINK_ReadReg(FPS26)
T5D00 7941:554.798 - 0.022ms returns 0x00000000
T5D00 7941:554.815 JLINK_ReadReg(FPS27)
T5D00 7941:554.831 - 0.023ms returns 0x00000000
T5D00 7941:554.848 JLINK_ReadReg(FPS28)
T5D00 7941:554.864 - 0.026ms returns 0x00000000
T5D00 7941:554.884 JLINK_ReadReg(FPS29)
T5D00 7941:554.900 - 0.023ms returns 0x00000000
T5D00 7941:554.918 JLINK_ReadReg(FPS30)
T5D00 7941:554.933 - 0.022ms returns 0x00000000
T5D00 7941:554.951 JLINK_ReadReg(FPS31)
T5D00 7941:554.966 - 0.022ms returns 0x00000000
T4D8C 7941:558.150 JLINK_HasError()
T4D8C 7941:558.201 JLINK_ReadMemU32(0xE0001004, 0x1 Items)
T4D8C 7941:558.229   CPU_ReadMem(4 bytes @ 0xE0001004)
T4D8C 7941:558.686   Data:  88 08 00 00
T4D8C 7941:558.712   Debug reg: DWT_CYCCNT
T4D8C 7941:558.734 - 0.540ms returns 1 (0x1)
T4D8C 7941:567.866 JLINK_ReadMemEx(0x0800221C, 0x3C Bytes, Flags = 0x02000000)
T4D8C 7941:567.941   CPU_ReadMem(128 bytes @ 0x08002200)
T4D8C 7941:568.741    -- Updating C cache (128 bytes @ 0x08002200)
T4D8C 7941:568.772    -- Read from C cache (60 bytes @ 0x0800221C)
T4D8C 7941:568.796   Data:  C8 84 58 B9 08 68 C0 68 20 F0 80 00 0B 68 D8 60 ...
T4D8C 7941:568.818 - 0.959ms returns 60 (0x3C)
T4D8C 7941:568.844 JLINK_ReadMemEx(0x08002258, 0x3C Bytes, Flags = 0x02000000)
T4D8C 7941:568.863   CPU_ReadMem(64 bytes @ 0x08002280)
T4D8C 7941:569.461    -- Updating C cache (64 bytes @ 0x08002280)
T4D8C 7941:569.487    -- Read from C cache (60 bytes @ 0x08002258)
T4D8C 7941:569.511   Data:  CF FB A0 EB 08 00 B0 42 2B D9 00 BF 00 BF 21 68 ...
T4D8C 7941:569.542 - 0.705ms returns 60 (0x3C)
T4D8C 7941:569.568 JLINK_ReadMemEx(0x08002294, 0x3C Bytes, Flags = 0x02000000)
T4D8C 7941:569.586   CPU_ReadMem(64 bytes @ 0x080022C0)
T4D8C 7941:570.214    -- Updating C cache (64 bytes @ 0x080022C0)
T4D8C 7941:570.239    -- Read from C cache (60 bytes @ 0x08002294)
T4D8C 7941:570.263   Data:  41 E8 00 02 00 2A F3 D1 00 BF 20 20 84 F8 3D 00 ...
T4D8C 7941:570.285 - 0.724ms returns 60 (0x3C)
T4D8C 7941:570.313 JLINK_ReadMemEx(0x080022D0, 0x3C Bytes, Flags = 0x02000000)
T4D8C 7941:570.331   CPU_ReadMem(64 bytes @ 0x08002300)
T4D8C 7941:570.961    -- Updating C cache (64 bytes @ 0x08002300)
T4D8C 7941:570.987    -- Read from C cache (60 bytes @ 0x080022D0)
T4D8C 7941:571.013   Data:  F0 E7 00 00 10 B5 02 48 FF F7 B2 F8 10 BD 00 00 ...
T4D8C 7941:571.035 - 0.729ms returns 60 (0x3C)
T4D8C 7941:571.060 JLINK_ReadMemEx(0x0800230C, 0x3C Bytes, Flags = 0x02000000)
T4D8C 7941:571.077   CPU_ReadMem(64 bytes @ 0x08002340)
T4D8C 7941:571.696    -- Updating C cache (64 bytes @ 0x08002340)
T4D8C 7941:571.722    -- Read from C cache (60 bytes @ 0x0800230C)
T4D8C 7941:571.745   Data:  0F 03 1B 1F D4 54 10 BD 00 E4 00 E0 18 ED 00 E0 ...
T4D8C 7941:571.767 - 0.715ms returns 60 (0x3C)
T4D8C 7961:363.776 JLINK_HasError()
T4D8C 7961:363.821 JLINK_SetResetType(JLINKARM_CM3_RESET_TYPE_NORMAL)
T4D8C 7961:363.832 - 0.017ms returns JLINKARM_CM3_RESET_TYPE_NORMAL
T4D8C 7961:363.844 JLINK_Reset()
T4D8C 7961:363.865   CPU_WriteMem(4 bytes @ 0xE000EDF0)
T4D8C 7961:364.337   CPU_WriteMem(4 bytes @ 0xE000EDFC)
T4D8C 7961:364.806   Reset: Halt core after reset via DEMCR.VC_CORERESET.
T4D8C 7961:365.401   Reset: Reset device via AIRCR.SYSRESETREQ.
T4D8C 7961:365.420   CPU_WriteMem(4 bytes @ 0xE000ED0C)
T4D8C 7961:418.954   CPU_ReadMem(4 bytes @ 0xE000EDF0)
T4D8C 7961:419.730   CPU_ReadMem(4 bytes @ 0xE000EDF0)
T4D8C 7961:420.526   CPU_WriteMem(4 bytes @ 0xE000EDF0)
T4D8C 7961:421.445   CPU_WriteMem(4 bytes @ 0xE000EDFC)
T4D8C 7961:427.797   CPU_ReadMem(4 bytes @ 0xE000EDF0)
T4D8C 7961:431.349   CPU_WriteMem(4 bytes @ 0xE0002000)
T4D8C 7961:431.966   CPU_ReadMem(4 bytes @ 0xE000EDFC)
T4D8C 7961:432.646   CPU_ReadMem(4 bytes @ 0xE0001000)
T4D8C 7961:433.346 - 69.520ms
T4D8C 7961:433.377 JLINK_WriteU32_64(0xE000EDFC, 0x01000000)
T4D8C 7961:433.389   Debug reg: DEMCR
T4D8C 7961:433.409   CPU_WriteMem(4 bytes @ 0xE000EDFC)
T4D8C 7961:434.173 - 0.814ms returns 0 (0x00000000)
T4D8C 7961:434.225 JLINK_HasError()
T4D8C 7961:434.238 JLINK_ReadReg(R15 (PC))
T4D8C 7961:434.250 - 0.017ms returns 0x0800024C
T4D8C 7961:434.260 JLINK_ReadReg(XPSR)
T4D8C 7961:434.270 - 0.014ms returns 0x01000000
T4D8C 7961:437.098 JLINK_HasError()
T4D8C 7961:437.127 JLINK_ReadReg(R0)
T4D8C 7961:437.139 - 0.016ms returns 0x00000000
T4D8C 7961:437.154 JLINK_ReadReg(R1)
T4D8C 7961:437.164 - 0.014ms returns 0x00000000
T4D8C 7961:437.174 JLINK_ReadReg(R2)
T4D8C 7961:437.184 - 0.015ms returns 0x00000000
T4D8C 7961:437.195 JLINK_ReadReg(R3)
T4D8C 7961:437.205 - 0.014ms returns 0x00000000
T4D8C 7961:437.215 JLINK_ReadReg(R4)
T4D8C 7961:437.225 - 0.014ms returns 0x00000000
T4D8C 7961:437.236 JLINK_ReadReg(R5)
T4D8C 7961:437.246 - 0.014ms returns 0x00000000
T4D8C 7961:437.257 JLINK_ReadReg(R6)
T4D8C 7961:437.267 - 0.014ms returns 0x00000000
T4D8C 7961:437.277 JLINK_ReadReg(R7)
T4D8C 7961:437.287 - 0.014ms returns 0x00000000
T4D8C 7961:437.297 JLINK_ReadReg(R8)
T4D8C 7961:437.306 - 0.014ms returns 0x00000000
T4D8C 7961:437.317 JLINK_ReadReg(R9)
T4D8C 7961:437.328 - 0.014ms returns 0x00000000
T4D8C 7961:437.338 JLINK_ReadReg(R10)
T4D8C 7961:437.347 - 0.014ms returns 0x00000000
T4D8C 7961:437.358 JLINK_ReadReg(R11)
T4D8C 7961:437.368 - 0.014ms returns 0x00000000
T4D8C 7961:437.379 JLINK_ReadReg(R12)
T4D8C 7961:437.389 - 0.014ms returns 0x00000000
T4D8C 7961:437.399 JLINK_ReadReg(R13 (SP))
T4D8C 7961:437.409 - 0.014ms returns 0x20000798
T4D8C 7961:437.419 JLINK_ReadReg(R14)
T4D8C 7961:437.429 - 0.014ms returns 0xFFFFFFFF
T4D8C 7961:437.489 JLINK_ReadReg(R15 (PC))
T4D8C 7961:437.502 - 0.018ms returns 0x0800024C
T4D8C 7961:437.513 JLINK_ReadReg(XPSR)
T4D8C 7961:437.522 - 0.014ms returns 0x01000000
T4D8C 7961:437.533 JLINK_ReadReg(MSP)
T4D8C 7961:437.543 - 0.014ms returns 0x20000798
T4D8C 7961:437.553 JLINK_ReadReg(PSP)
T4D8C 7961:437.563 - 0.014ms returns 0x00000000
T4D8C 7961:437.573 JLINK_ReadReg(CFBP)
T4D8C 7961:437.583 - 0.014ms returns 0x00000000
T4D8C 7961:437.594 JLINK_ReadReg(FPSCR)
T4D8C 7961:441.347 - 3.792ms returns 0x00000000
T4D8C 7961:441.401 JLINK_ReadReg(FPS0)
T4D8C 7961:441.414 - 0.018ms returns 0x00000000
T4D8C 7961:441.425 JLINK_ReadReg(FPS1)
T4D8C 7961:441.434 - 0.014ms returns 0x00000000
T4D8C 7961:441.445 JLINK_ReadReg(FPS2)
T4D8C 7961:441.454 - 0.014ms returns 0x00000000
T4D8C 7961:441.464 JLINK_ReadReg(FPS3)
T4D8C 7961:441.474 - 0.014ms returns 0x00000000
T4D8C 7961:441.484 JLINK_ReadReg(FPS4)
T4D8C 7961:441.494 - 0.014ms returns 0x00000000
T4D8C 7961:441.504 JLINK_ReadReg(FPS5)
T4D8C 7961:441.514 - 0.014ms returns 0x00000000
T4D8C 7961:441.524 JLINK_ReadReg(FPS6)
T4D8C 7961:441.533 - 0.014ms returns 0x00000000
T4D8C 7961:441.544 JLINK_ReadReg(FPS7)
T4D8C 7961:441.554 - 0.014ms returns 0x00000000
T4D8C 7961:441.564 JLINK_ReadReg(FPS8)
T4D8C 7961:441.574 - 0.014ms returns 0x00000000
T4D8C 7961:441.584 JLINK_ReadReg(FPS9)
T4D8C 7961:441.594 - 0.015ms returns 0x00000000
T4D8C 7961:441.605 JLINK_ReadReg(FPS10)
T4D8C 7961:441.614 - 0.014ms returns 0x00000000
T4D8C 7961:441.625 JLINK_ReadReg(FPS11)
T4D8C 7961:441.634 - 0.014ms returns 0x00000000
T4D8C 7961:441.645 JLINK_ReadReg(FPS12)
T4D8C 7961:441.655 - 0.014ms returns 0x00000000
T4D8C 7961:441.666 JLINK_ReadReg(FPS13)
T4D8C 7961:441.675 - 0.014ms returns 0x00000000
T4D8C 7961:441.685 JLINK_ReadReg(FPS14)
T4D8C 7961:441.697 - 0.016ms returns 0x00000000
T4D8C 7961:441.708 JLINK_ReadReg(FPS15)
T4D8C 7961:441.719 - 0.016ms returns 0x00000000
T4D8C 7961:441.731 JLINK_ReadReg(FPS16)
T4D8C 7961:441.741 - 0.015ms returns 0x00000000
T4D8C 7961:441.752 JLINK_ReadReg(FPS17)
T4D8C 7961:441.764 - 0.018ms returns 0x00000000
T4D8C 7961:441.777 JLINK_ReadReg(FPS18)
T4D8C 7961:441.814 - 0.044ms returns 0x00000000
T4D8C 7961:441.830 JLINK_ReadReg(FPS19)
T4D8C 7961:441.840 - 0.015ms returns 0x00000000
T4D8C 7961:441.852 JLINK_ReadReg(FPS20)
T4D8C 7961:441.862 - 0.015ms returns 0x00000000
T4D8C 7961:441.873 JLINK_ReadReg(FPS21)
T4D8C 7961:441.884 - 0.015ms returns 0x00000000
T4D8C 7961:441.896 JLINK_ReadReg(FPS22)
T4D8C 7961:441.907 - 0.015ms returns 0x00000000
T4D8C 7961:441.918 JLINK_ReadReg(FPS23)
T4D8C 7961:441.929 - 0.015ms returns 0x00000000
T4D8C 7961:441.939 JLINK_ReadReg(FPS24)
T4D8C 7961:441.948 - 0.014ms returns 0x00000000
T4D8C 7961:441.959 JLINK_ReadReg(FPS25)
T4D8C 7961:441.969 - 0.014ms returns 0x00000000
T4D8C 7961:441.979 JLINK_ReadReg(FPS26)
T4D8C 7961:441.989 - 0.014ms returns 0x00000000
T4D8C 7961:441.999 JLINK_ReadReg(FPS27)
T4D8C 7961:442.009 - 0.014ms returns 0x00000000
T4D8C 7961:442.019 JLINK_ReadReg(FPS28)
T4D8C 7961:442.028 - 0.014ms returns 0x00000000
T4D8C 7961:442.039 JLINK_ReadReg(FPS29)
T4D8C 7961:442.048 - 0.014ms returns 0x00000000
T4D8C 7961:442.058 JLINK_ReadReg(FPS30)
T4D8C 7961:442.068 - 0.014ms returns 0x00000000
T4D8C 7961:442.078 JLINK_ReadReg(FPS31)
T4D8C 7961:442.087 - 0.014ms returns 0x00000000
T4D8C 7961:442.099 JLINK_HasError()
T4D8C 7961:442.110 JLINK_ReadMemU32(0xE0001004, 0x1 Items)
T4D8C 7961:442.126   Data:  00 00 00 00
T4D8C 7961:442.141   Debug reg: DWT_CYCCNT
T4D8C 7961:442.155 - 0.049ms returns 1 (0x1)
T4D8C 7961:444.314 JLINK_ReadMemEx(0x080001AC, 0x3C Bytes, Flags = 0x02000000)
T4D8C 7961:444.355   CPU_ReadMem(128 bytes @ 0x08000180)
T4D8C 7961:445.238    -- Updating C cache (128 bytes @ 0x08000180)
T4D8C 7961:445.268    -- Read from C cache (60 bytes @ 0x080001AC)
T4D8C 7961:445.285   Data:  00 F0 02 F8 00 F0 3C F8 0A A0 90 E8 00 0C 82 44 ...
T4D8C 7961:445.301 - 0.992ms returns 60 (0x3C)
T4D8C 7961:445.320 JLINK_ReadMemEx(0x080001E8, 0x3C Bytes, Flags = 0x02000000)
T4D8C 7961:445.338   CPU_ReadMem(64 bytes @ 0x08000200)
T4D8C 7961:446.023    -- Updating C cache (64 bytes @ 0x08000200)
T4D8C 7961:446.051    -- Read from C cache (60 bytes @ 0x080001E8)
T4D8C 7961:446.068   Data:  10 3A 24 BF 78 C8 78 C1 FA D8 52 07 24 BF 30 C8 ...
T4D8C 7961:446.084 - 0.769ms returns 60 (0x3C)
T4D8C 7961:446.500 JLINK_ReadMemEx(0x08000224, 0x3C Bytes, Flags = 0x02000000)
T4D8C 7961:446.567   CPU_ReadMem(64 bytes @ 0x08000240)
T4D8C 7961:447.174    -- Updating C cache (64 bytes @ 0x08000240)
T4D8C 7961:447.192    -- Read from C cache (60 bytes @ 0x08000224)
T4D8C 7961:447.208   Data:  DF F8 1F BD 10 B5 10 BD 00 F0 CF F8 11 46 FF F7 ...
T4D8C 7961:447.223 - 0.728ms returns 60 (0x3C)
T4D8C 7961:533.910 JLINK_WriteU32_64(0xE0001008, 0x00000000)
T4D8C 7961:533.960   Debug reg: DWT_CPICNT
T4D8C 7961:533.988 - 0.084ms returns 0 (0x00000000)
T4D8C 7961:534.001 JLINK_WriteU32_64(0xE000100C, 0x00000000)
T4D8C 7961:534.012   Debug reg: DWT_EXCCNT
T4D8C 7961:534.029 - 0.033ms returns 0 (0x00000000)
T4D8C 7961:534.041 JLINK_WriteU32_64(0xE0001010, 0x00000000)
T4D8C 7961:534.052   Debug reg: DWT_SLEEPCNT
T4D8C 7961:534.068 - 0.033ms returns 0 (0x00000000)
T4D8C 7961:534.080 JLINK_WriteU32_64(0xE0001014, 0x00000000)
T4D8C 7961:534.090   Debug reg: DWT_LSUCNT
T4D8C 7961:534.106 - 0.031ms returns 0 (0x00000000)
T4D8C 7961:534.118 JLINK_WriteU32_64(0xE0001018, 0x00000000)
T4D8C 7961:534.128   Debug reg: DWT_FOLDCNT
T4D8C 7961:534.144 - 0.032ms returns 0 (0x00000000)
T5D00 7962:664.464 JLINK_ReadMemEx(0x0800024C, 0x2 Bytes, Flags = 0x02000000)
T5D00 7962:664.530    -- Read from C cache (2 bytes @ 0x0800024C)
T5D00 7962:664.557   Data:  09 48
T5D00 7962:664.585 - 0.130ms returns 2 (0x2)
T5D00 7962:664.607 JLINK_HasError()
T5D00 7962:664.631 JLINK_HasError()
T5D00 7962:664.651 JLINK_ReadMemU32(0xE0001004, 0x1 Items)
T5D00 7962:664.684   Data:  00 00 00 00
T5D00 7962:664.712   Debug reg: DWT_CYCCNT
T5D00 7962:664.739 - 0.096ms returns 1 (0x1)
T5D00 7962:664.760 JLINK_WriteU32_64(0xE0001004, 0x000003FF)
T5D00 7962:664.775   Debug reg: DWT_CYCCNT
T5D00 7962:664.803 - 0.051ms returns 0 (0x00000000)
T5D00 7962:664.821 JLINK_WriteU32_64(0xE0001000, 0x00410A1F)
T5D00 7962:664.838   Debug reg: DWT_CTRL
T5D00 7962:664.869   CPU_WriteMem(4 bytes @ 0xE0001000)
T5D00 7962:665.309 - 0.509ms returns 0 (0x00000000)
T5D00 7962:665.341 JLINK_WriteU32_64(0xE0000E80, 0x0001000F)
T5D00 7962:665.354   Debug reg: ITM_TCR
T5D00 7962:665.374 - 0.039ms returns 0 (0x00000000)
T5D00 7962:665.388 JLINK_SWO_Control(JLINKARM_SWO_CMD_GET_NUM_BYTES, ...)
T5D00 7962:665.401 - 0.018ms returns 0x00
T5D00 7962:665.415 JLINK_Go()
T5D00 7962:665.871   CPU_ReadMem(4 bytes @ 0xE0001000)
T5D00 7962:666.284   CPU_WriteMem(4 bytes @ 0xE0000E80)
T5D00 7962:666.306   CPU_WriteMem(4 bytes @ 0xE0001008)
T5D00 7962:666.323   CPU_WriteMem(4 bytes @ 0xE000100C)
T5D00 7962:666.340   CPU_WriteMem(4 bytes @ 0xE0001010)
T5D00 7962:666.357   CPU_WriteMem(4 bytes @ 0xE0001014)
T5D00 7962:666.374   CPU_WriteMem(4 bytes @ 0xE0001018)
T5D00 7962:666.391   CPU_WriteMem(4 bytes @ 0xE0002008)
T5D00 7962:666.408   CPU_WriteMem(4 bytes @ 0xE000200C)
T5D00 7962:666.425   CPU_WriteMem(4 bytes @ 0xE0002010)
T5D00 7962:666.442   CPU_WriteMem(4 bytes @ 0xE0002014)
T5D00 7962:666.459   CPU_WriteMem(4 bytes @ 0xE0002018)
T5D00 7962:666.476   CPU_WriteMem(4 bytes @ 0xE000201C)
T5D00 7962:667.973   CPU_WriteMem(4 bytes @ 0xE0001004)
T5D00 7962:668.855 - 3.451ms
T5D00 7962:668.877 JLINK_WriteU32_64(0xE0001000, 0x00010A1F)
T5D00 7962:668.891   Debug reg: DWT_CTRL
T5D00 7962:668.911   CPU is running
T5D00 7962:668.930   CPU_WriteMem(4 bytes @ 0xE0001000)
T5D00 7962:669.335 - 0.466ms returns 0 (0x00000000)
T5D00 7962:770.489 JLINK_SWO_Read(..., Offset = 0x00, NumBytes = 0x400000)
T5D00 7962:770.541   Data: 
T5D00 7962:770.560 - 0.077ms returns NumBytesRead = 0x00
T5D00 7962:770.574 JLINK_SWO_Control(JLINKARM_SWO_CMD_FLUSH, ...)
T5D00 7962:770.587 - 0.019ms returns 0x00
T5D00 7962:770.602 JLINK_HasError()
T5D00 7962:770.624 JLINK_IsHalted()
T5D00 7962:771.114 - 0.515ms returns FALSE
T5D00 7962:871.643 JLINK_SWO_Read(..., Offset = 0x00, NumBytes = 0x400000)
T5D00 7962:871.692   Data: 
T5D00 7962:871.711 - 0.073ms returns NumBytesRead = 0x00
T5D00 7962:871.725 JLINK_SWO_Control(JLINKARM_SWO_CMD_FLUSH, ...)
T5D00 7962:871.738 - 0.018ms returns 0x00
T5D00 7962:871.753 JLINK_HasError()
T5D00 7962:871.768 JLINK_IsHalted()
T5D00 7962:872.211 - 0.451ms returns FALSE
T5D00 7962:972.314 JLINK_SWO_Read(..., Offset = 0x00, NumBytes = 0x400000)
T5D00 7962:972.369   Data: 
T5D00 7962:972.391 - 0.082ms returns NumBytesRead = 0x00
T5D00 7962:972.405 JLINK_SWO_Control(JLINKARM_SWO_CMD_FLUSH, ...)
T5D00 7962:972.419 - 0.019ms returns 0x00
T5D00 7962:972.433 JLINK_HasError()
T5D00 7962:972.449 JLINK_IsHalted()
T5D00 7962:972.911 - 0.476ms returns FALSE
T5D00 7963:073.455 JLINK_SWO_Read(..., Offset = 0x00, NumBytes = 0x400000)
T5D00 7963:073.512   Data: 
T5D00 7963:073.534 - 0.086ms returns NumBytesRead = 0x00
T5D00 7963:073.551 JLINK_SWO_Control(JLINKARM_SWO_CMD_FLUSH, ...)
T5D00 7963:073.567 - 0.022ms returns 0x00
T5D00 7963:073.584 JLINK_HasError()
T5D00 7963:073.606 JLINK_IsHalted()
T5D00 7963:074.014 - 0.419ms returns FALSE
T5D00 7963:174.710 JLINK_SWO_Read(..., Offset = 0x00, NumBytes = 0x400000)
T5D00 7963:174.798   Data: 
T5D00 7963:174.821 - 0.118ms returns NumBytesRead = 0x00
T5D00 7963:174.840 JLINK_SWO_Control(JLINKARM_SWO_CMD_FLUSH, ...)
T5D00 7963:174.856 - 0.023ms returns 0x00
T5D00 7963:174.874 JLINK_HasError()
T5D00 7963:174.894 JLINK_IsHalted()
T5D00 7963:175.342 - 0.481ms returns FALSE
T5D00 7963:276.233 JLINK_SWO_Read(..., Offset = 0x00, NumBytes = 0x400000)
T5D00 7963:276.291   Data: 
T5D00 7963:276.311 - 0.086ms returns NumBytesRead = 0x00
T5D00 7963:276.328 JLINK_SWO_Control(JLINKARM_SWO_CMD_FLUSH, ...)
T5D00 7963:276.341 - 0.020ms returns 0x00
T5D00 7963:276.358 JLINK_HasError()
T5D00 7963:276.375 JLINK_HasError()
T5D00 7963:276.389 JLINK_ReadMemU32(0xE0001004, 0x1 Items)
T5D00 7963:276.416   CPU_ReadMem(4 bytes @ 0xE0001004)
T5D00 7963:276.868   Data:  F8 F2 83 06
T5D00 7963:276.891   Debug reg: DWT_CYCCNT
T5D00 7963:276.910 - 0.527ms returns 1 (0x1)
T5D00 7963:282.867 JLINK_IsHalted()
T5D00 7963:283.311 - 0.453ms returns FALSE
T5D00 7963:384.136 JLINK_SWO_Read(..., Offset = 0x00, NumBytes = 0x400000)
T5D00 7963:384.190   Data: 
T5D00 7963:384.214 - 0.086ms returns NumBytesRead = 0x00
T5D00 7963:384.231 JLINK_SWO_Control(JLINKARM_SWO_CMD_FLUSH, ...)
T5D00 7963:384.246 - 0.021ms returns 0x00
T5D00 7963:384.263 JLINK_HasError()
T5D00 7963:384.280 JLINK_IsHalted()
T5D00 7963:384.769 - 0.498ms returns FALSE
T5D00 7963:485.318 JLINK_SWO_Read(..., Offset = 0x00, NumBytes = 0x400000)
T5D00 7963:485.366   Data: 
T5D00 7963:485.387 - 0.076ms returns NumBytesRead = 0x00
T5D00 7963:485.404 JLINK_SWO_Control(JLINKARM_SWO_CMD_FLUSH, ...)
T5D00 7963:485.419 - 0.022ms returns 0x00
T5D00 7963:485.436 JLINK_HasError()
T5D00 7963:485.453 JLINK_IsHalted()
T5D00 7963:485.910 - 0.483ms returns FALSE
T5D00 7963:586.730 JLINK_SWO_Read(..., Offset = 0x00, NumBytes = 0x400000)
T5D00 7963:586.789   Data: 
T5D00 7963:586.808 - 0.084ms returns NumBytesRead = 0x00
T5D00 7963:586.823 JLINK_SWO_Control(JLINKARM_SWO_CMD_FLUSH, ...)
T5D00 7963:586.837 - 0.019ms returns 0x00
T5D00 7963:586.853 JLINK_HasError()
T5D00 7963:586.869 JLINK_IsHalted()
T5D00 7963:587.378 - 0.530ms returns FALSE
T5D00 7963:687.798 JLINK_SWO_Read(..., Offset = 0x00, NumBytes = 0x400000)
T5D00 7963:687.859   Data: 
T5D00 7963:687.877 - 0.084ms returns NumBytesRead = 0x00
T5D00 7963:687.890 JLINK_SWO_Control(JLINKARM_SWO_CMD_FLUSH, ...)
T5D00 7963:687.903 - 0.018ms returns 0x00
T5D00 7963:687.917 JLINK_HasError()
T5D00 7963:687.931 JLINK_IsHalted()
T5D00 7963:688.708 - 0.795ms returns FALSE
T5D00 7963:789.700 JLINK_SWO_Read(..., Offset = 0x00, NumBytes = 0x400000)
T5D00 7963:789.740   Data: 
T5D00 7963:789.758 - 0.064ms returns NumBytesRead = 0x00
T5D00 7963:789.772 JLINK_SWO_Control(JLINKARM_SWO_CMD_FLUSH, ...)
T5D00 7963:789.788 - 0.023ms returns 0x00
T5D00 7963:789.804 JLINK_HasError()
T5D00 7963:789.818 JLINK_HasError()
T5D00 7963:789.831 JLINK_ReadMemU32(0xE0001004, 0x1 Items)
T5D00 7963:789.852   Data:  F8 F2 83 06
T5D00 7963:789.870   Debug reg: DWT_CYCCNT
T5D00 7963:789.887 - 0.062ms returns 1 (0x1)
T5D00 7963:796.012 JLINK_IsHalted()
T5D00 7963:796.441 - 0.454ms returns FALSE
T5D00 7963:897.335 JLINK_SWO_Read(..., Offset = 0x00, NumBytes = 0x400000)
T5D00 7963:897.382   Data: 
T5D00 7963:897.400 - 0.071ms returns NumBytesRead = 0x00
T5D00 7963:897.414 JLINK_SWO_Control(JLINKARM_SWO_CMD_FLUSH, ...)
T5D00 7963:897.427 - 0.018ms returns 0x00
T5D00 7963:897.441 JLINK_HasError()
T5D00 7963:897.456 JLINK_IsHalted()
T5D00 7963:897.946 - 0.498ms returns FALSE
T5D00 7963:998.750 JLINK_SWO_Read(..., Offset = 0x00, NumBytes = 0x400000)
T5D00 7963:998.803   Data: 
T5D00 7963:998.821 - 0.077ms returns NumBytesRead = 0x00
T5D00 7963:998.835 JLINK_SWO_Control(JLINKARM_SWO_CMD_FLUSH, ...)
T5D00 7963:998.849 - 0.019ms returns 0x00
T5D00 7963:998.863 JLINK_HasError()
T5D00 7963:998.877 JLINK_IsHalted()
T5D00 7963:999.428 - 0.562ms returns FALSE
T5D00 7964:099.617 JLINK_SWO_Read(..., Offset = 0x00, NumBytes = 0x400000)
T5D00 7964:099.676   Data: 
T5D00 7964:099.696 - 0.085ms returns NumBytesRead = 0x00
T5D00 7964:099.713 JLINK_SWO_Control(JLINKARM_SWO_CMD_FLUSH, ...)
T5D00 7964:099.727 - 0.020ms returns 0x00
T5D00 7964:099.744 JLINK_HasError()
T5D00 7964:099.760 JLINK_IsHalted()
T5D00 7964:100.214 - 0.489ms returns FALSE
T5D00 7964:201.525 JLINK_SWO_Read(..., Offset = 0x00, NumBytes = 0x400000)
T5D00 7964:201.572   Data: 
T5D00 7964:201.592 - 0.073ms returns NumBytesRead = 0x00
T5D00 7964:201.608 JLINK_SWO_Control(JLINKARM_SWO_CMD_FLUSH, ...)
T5D00 7964:201.621 - 0.020ms returns 0x00
T5D00 7964:201.647 JLINK_HasError()
T5D00 7964:201.663 JLINK_IsHalted()
T5D00 7964:202.057 - 0.419ms returns FALSE
T5D00 7964:302.909 JLINK_SWO_Read(..., Offset = 0x00, NumBytes = 0x400000)
T5D00 7964:302.966   Data: 
T5D00 7964:302.985 - 0.083ms returns NumBytesRead = 0x00
T5D00 7964:303.000 JLINK_SWO_Control(JLINKARM_SWO_CMD_FLUSH, ...)
T5D00 7964:303.014 - 0.019ms returns 0x00
T5D00 7964:303.029 JLINK_HasError()
T5D00 7964:303.045 JLINK_IsHalted()
T5D00 7964:303.474 - 0.437ms returns FALSE
T5D00 7964:403.663 JLINK_SWO_Read(..., Offset = 0x00, NumBytes = 0x400000)
T5D00 7964:403.718   Data: 
T5D00 7964:403.738 - 0.081ms returns NumBytesRead = 0x00
T5D00 7964:403.753 JLINK_SWO_Control(JLINKARM_SWO_CMD_FLUSH, ...)
T5D00 7964:403.767 - 0.021ms returns 0x00
T5D00 7964:403.784 JLINK_HasError()
T5D00 7964:403.800 JLINK_HasError()
T5D00 7964:403.815 JLINK_ReadMemU32(0xE0001004, 0x1 Items)
T5D00 7964:403.839   Data:  F8 F2 83 06
T5D00 7964:403.860   Debug reg: DWT_CYCCNT
T5D00 7964:403.880 - 0.071ms returns 1 (0x1)
T5D00 7964:411.724 JLINK_IsHalted()
T5D00 7964:412.188 - 0.494ms returns FALSE
T5D00 7964:513.729 JLINK_SWO_Read(..., Offset = 0x00, NumBytes = 0x400000)
T5D00 7964:513.788   Data: 
T5D00 7964:513.807 - 0.085ms returns NumBytesRead = 0x00
T5D00 7964:513.823 JLINK_SWO_Control(JLINKARM_SWO_CMD_FLUSH, ...)
T5D00 7964:513.836 - 0.019ms returns 0x00
T5D00 7964:513.852 JLINK_HasError()
T5D00 7964:513.867 JLINK_IsHalted()
T5D00 7964:514.325 - 0.485ms returns FALSE
T5D00 7964:615.062 JLINK_SWO_Read(..., Offset = 0x00, NumBytes = 0x400000)
T5D00 7964:615.111   Data: 
T5D00 7964:615.130 - 0.073ms returns NumBytesRead = 0x00
T5D00 7964:615.144 JLINK_SWO_Control(JLINKARM_SWO_CMD_FLUSH, ...)
T5D00 7964:615.157 - 0.019ms returns 0x00
T5D00 7964:615.172 JLINK_HasError()
T5D00 7964:615.186 JLINK_IsHalted()
T5D00 7964:615.650 - 0.472ms returns FALSE
T5D00 7964:716.369 JLINK_SWO_Read(..., Offset = 0x00, NumBytes = 0x400000)
T5D00 7964:716.424   Data: 
T5D00 7964:716.443 - 0.079ms returns NumBytesRead = 0x00
T5D00 7964:716.457 JLINK_SWO_Control(JLINKARM_SWO_CMD_FLUSH, ...)
T5D00 7964:716.470 - 0.019ms returns 0x00
T5D00 7964:716.485 JLINK_HasError()
T5D00 7964:716.500 JLINK_IsHalted()
T5D00 7964:716.991 - 0.512ms returns FALSE
T5D00 7964:817.565 JLINK_SWO_Read(..., Offset = 0x00, NumBytes = 0x400000)
T5D00 7964:817.616   Data: 
T5D00 7964:817.634 - 0.075ms returns NumBytesRead = 0x00
T5D00 7964:817.648 JLINK_SWO_Control(JLINKARM_SWO_CMD_FLUSH, ...)
T5D00 7964:817.661 - 0.018ms returns 0x00
T5D00 7964:817.676 JLINK_HasError()
T5D00 7964:817.690 JLINK_IsHalted()
T5D00 7964:818.164 - 0.481ms returns FALSE
T5D00 7964:918.872 JLINK_SWO_Read(..., Offset = 0x00, NumBytes = 0x400000)
T5D00 7964:918.930   Data: 
T5D00 7964:918.948 - 0.081ms returns NumBytesRead = 0x00
T5D00 7964:918.962 JLINK_SWO_Control(JLINKARM_SWO_CMD_FLUSH, ...)
T5D00 7964:918.975 - 0.018ms returns 0x00
T5D00 7964:918.990 JLINK_HasError()
T5D00 7964:919.005 JLINK_HasError()
T5D00 7964:919.018 JLINK_ReadMemU32(0xE0001004, 0x1 Items)
T5D00 7964:919.042   Data:  F8 F2 83 06
T5D00 7964:919.061   Debug reg: DWT_CYCCNT
T5D00 7964:919.078 - 0.065ms returns 1 (0x1)
T5D00 7964:924.925 JLINK_IsHalted()
T5D00 7964:925.429 - 0.524ms returns FALSE
T5D00 7965:026.520 JLINK_SWO_Read(..., Offset = 0x00, NumBytes = 0x400000)
T5D00 7965:026.577   Data: 
T5D00 7965:026.595 - 0.080ms returns NumBytesRead = 0x00
T5D00 7965:026.609 JLINK_SWO_Control(JLINKARM_SWO_CMD_FLUSH, ...)
T5D00 7965:026.621 - 0.018ms returns 0x00
T5D00 7965:026.636 JLINK_HasError()
T5D00 7965:026.651 JLINK_IsHalted()
T5D00 7965:027.245 - 0.613ms returns FALSE
T5D00 7965:128.164 JLINK_SWO_Read(..., Offset = 0x00, NumBytes = 0x400000)
T5D00 7965:128.224   Data: 
T5D00 7965:128.246 - 0.088ms returns NumBytesRead = 0x00
T5D00 7965:128.262 JLINK_SWO_Control(JLINKARM_SWO_CMD_FLUSH, ...)
T5D00 7965:128.277 - 0.021ms returns 0x00
T5D00 7965:128.294 JLINK_HasError()
T5D00 7965:128.310 JLINK_IsHalted()
